T11E0 000:060.095   SEGGER J-Link V6.86 Log File
T11E0 000:060.267   DLL Compiled: Sep 24 2020 17:31:31
T11E0 000:060.276   Logging started @ 2021-11-22 21:27
T11E0 000:060.284 - 60.288ms
T11E0 000:060.298 JLINK_SetWarnOutHandler(...)
T11E0 000:060.308 - 0.013ms
T11E0 000:060.317 JLINK_OpenEx(...)
T11E0 000:061.814   Firmware: J-Link ARM-OB STM32 compiled Aug 22 2012 19:52:04
T11E0 000:064.099   Hardware: V7.00
T11E0 000:064.124   S/N: 4294967295
T11E0 000:064.135   OEM: SEGGER
T11E0 000:064.146   Feature(s): RDI,FlashDL,FlashBP,JFlash,GDBFull
T11E0 000:065.373   TELNET listener socket opened on port 19021
T11E0 000:065.535   WEBSRV Starting webserver
T11E0 000:065.667   WEBSRV Webserver running on local port 19080
T11E0 000:065.683 - 5.369ms returns "O.K."
T11E0 000:065.705 JLINK_GetEmuCaps()
T11E0 000:065.714 - 0.012ms returns 0x88EA5833
T11E0 000:065.727 JLINK_TIF_GetAvailable(...)
T11E0 000:065.908 - 0.196ms
T11E0 000:065.940 JLINK_SetErrorOutHandler(...)
T11E0 000:065.952 - 0.017ms
T11E0 000:065.979 JLINK_ExecCommand("ProjectFile = "C:\Users\Kassie\Documents\GitHub\asteroids_lpc_17xx\gravity_demo\project_code\JLinkSettings.ini"", ...). 
T11E0 000:074.175 - 8.212ms returns 0x00
T11E0 000:077.840 JLINK_ExecCommand("Device = LPC1768", ...). 
T11E0 000:080.741   Device "LPC1768" selected.
T11E0 000:081.166 - 3.314ms returns 0x00
T11E0 000:081.206 JLINK_GetHardwareVersion()
T11E0 000:081.218 - 0.016ms returns 70000
T11E0 000:081.233 JLINK_GetDLLVersion()
T11E0 000:081.242 - 0.012ms returns 68600
T11E0 000:081.251 JLINK_GetOEMString(...)
T11E0 000:081.261 JLINK_GetFirmwareString(...)
T11E0 000:081.269 - 0.011ms
T11E0 000:089.234 JLINK_GetDLLVersion()
T11E0 000:089.257 - 0.028ms returns 68600
T11E0 000:089.269 JLINK_GetCompileDateTime()
T11E0 000:089.277 - 0.012ms
T11E0 000:092.720 JLINK_GetFirmwareString(...)
T11E0 000:092.740 - 0.024ms
T11E0 000:095.284 JLINK_GetHardwareVersion()
T11E0 000:095.301 - 0.020ms returns 70000
T11E0 000:098.002 JLINK_GetSN()
T11E0 000:098.023 - 0.025ms returns -1
T11E0 000:098.034 JLINK_GetOEMString(...)
T11E0 000:103.257 JLINK_TIF_Select(JLINKARM_TIF_JTAG)
T11E0 000:105.366 - 2.146ms returns 0x00
T11E0 000:105.421 JLINK_HasError()
T11E0 000:105.448 JLINK_SetSpeed(5000)
T11E0 000:105.676 - 0.253ms
T11E0 000:105.716 JLINK_GetIdData(pIdData)
T11E0 000:110.811   TotalIRLen = 4, IRPrint = 0x01
T11E0 000:114.591   JTAG chain detection found 1 devices:
T11E0 000:117.088    #0 Id: 0x4BA00477, IRLen: 04, CoreSight JTAG-DP
T11E0 000:121.154   Old FW that does not support reading DPIDR via DAP jobs
T11E0 000:128.670   Unknown DP version. Assuming DPv0
T11E0 000:132.414   Scanning AP map to find all available APs
T11E0 000:138.979   AP[1]: Stopped AP scan as end of AP map has been reached
T11E0 000:141.537   AP[0]: AHB-AP (IDR: 0x24770011)
T11E0 000:144.044   Iterating through AP map to find AHB-AP to use
T11E0 000:153.125   AP[0]: Core found
T11E0 000:155.656   AP[0]: AHB-AP ROM base: 0xE00FF000
T11E0 000:161.709   CPUID register: 0x412FC230. Implementer code: 0x41 (ARM)
T11E0 000:164.762   Found Cortex-M3 r2p0, Little endian.
T11E0 000:165.235   -- Max. mem block: 0x00002C18
T11E0 000:171.144   FPUnit: 6 code (BP) slots and 2 literal slots
T11E0 000:183.024   CoreSight components:
T11E0 000:185.539   ROMTbl[0] @ E00FF000
T11E0 000:193.702   ROMTbl[0][0]: E000E000, CID: B105E00D, PID: 002BB000 SCS
T11E0 000:199.074   ROMTbl[0][1]: E0001000, CID: B105E00D, PID: 002BB002 DWT
T11E0 000:204.015   ROMTbl[0][2]: E0002000, CID: B105E00D, PID: 002BB003 FPB
T11E0 000:209.131   ROMTbl[0][3]: E0000000, CID: B105E00D, PID: 002BB001 ITM
T11E0 000:214.358   ROMTbl[0][4]: E0040000, CID: B105900D, PID: 002BB923 TPIU-Lite
T11E0 000:219.000   ROMTbl[0][5]: E0041000, CID: B105900D, PID: 002BB924 ETM-M3
T11E0 000:219.062   pIdData->ScanLen=4
T11E0 000:219.076   
T11E0 000:219.083   pIdData->NumDevices=1
T11E0 000:219.094   
T11E0 000:219.102   pIdData->aId[0]=0x4BA00477
T11E0 000:219.112   
T11E0 000:219.119   pIdData->aIrRead[0]=0
T11E0 000:219.129   
T11E0 000:219.212   pIdData->aScanLen[0]=0
T11E0 000:219.223   
T11E0 000:219.230   pIdData->aScanRead[0]=0
T11E0 000:219.241   
T11E0 000:219.248 - 113.536ms
T11E0 000:219.271 JLINK_JTAG_GetDeviceID(DeviceIndex = 0)
T11E0 000:219.283 - 0.016ms returns 1268778103
T11E0 000:219.294 JLINK_JTAG_GetDeviceInfo(DeviceIndex = 0)
T11E0 000:219.302 - 0.011ms returns 0
T11E0 000:219.400 JLINK_GetDLLVersion()
T11E0 000:219.422 - 0.027ms returns 68600
T11E0 000:219.436 JLINK_CORE_GetFound()
T11E0 000:219.447 - 0.016ms returns 0x30000FF
T11E0 000:219.458 JLINK_GetDebugInfo(0x100 = JLINKARM_ROM_TABLE_ADDR_INDEX)
T11E0 000:219.468   Value=0xE00FF000
T11E0 000:219.479 - 0.024ms returns 0
T11E0 000:222.074 JLINK_GetDebugInfo(0x100 = JLINKARM_ROM_TABLE_ADDR_INDEX)
T11E0 000:222.090   Value=0xE00FF000
T11E0 000:222.102 - 0.031ms returns 0
T11E0 000:222.112 JLINK_GetDebugInfo(0x101 = JLINKARM_DEBUG_INFO_ETM_ADDR_INDEX)
T11E0 000:222.120   Value=0xE0041000
T11E0 000:222.131 - 0.022ms returns 0
T11E0 000:222.145 JLINK_ReadMemEx(0xE0041FD0, 0x20 Bytes, Flags = 0x02000004)
T11E0 000:224.137   Data:  04 00 00 00 00 00 00 00 00 00 00 00 00 00 00 00 ...
T11E0 000:224.216 - 2.077ms returns 32 (0x20)
T11E0 000:224.240 JLINK_GetDebugInfo(0x102 = JLINKARM_DEBUG_INFO_MTB_ADDR_INDEX)
T11E0 000:224.258   Value=0x00000000
T11E0 000:224.279 - 0.044ms returns 0
T11E0 000:224.294 JLINK_GetDebugInfo(0x103 = JLINKARM_DEBUG_INFO_TPIU_ADDR_INDEX)
T11E0 000:224.309   Value=0xE0040000
T11E0 000:224.327 - 0.048ms returns 0
T11E0 000:224.350 JLINK_GetDebugInfo(0x104 = JLINKARM_DEBUG_INFO_ITM_ADDR_INDEX)
T11E0 000:224.359   Value=0xE0000000
T11E0 000:224.370 - 0.023ms returns 0
T11E0 000:224.379 JLINK_GetDebugInfo(0x105 = JLINKARM_DEBUG_INFO_DWT_ADDR_INDEX)
T11E0 000:224.387   Value=0xE0001000
T11E0 000:224.397 - 0.031ms returns 0
T11E0 000:224.416 JLINK_GetDebugInfo(0x106 = JLINKARM_DEBUG_INFO_FPB_ADDR_INDEX)
T11E0 000:224.423   Value=0xE0002000
T11E0 000:224.434 - 0.030ms returns 0
T11E0 000:224.452 JLINK_GetDebugInfo(0x107 = JLINKARM_DEBUG_INFO_NVIC_ADDR_INDEX)
T11E0 000:224.460   Value=0xE000E000
T11E0 000:224.471 - 0.022ms returns 0
T11E0 000:224.489 JLINK_GetDebugInfo(0x10C = JLINKARM_DEBUG_INFO_DBG_ADDR_INDEX)
T11E0 000:224.497   Value=0xE000EDF0
T11E0 000:224.508 - 0.022ms returns 0
T11E0 000:224.516 JLINK_GetDebugInfo(0x01 = Unknown)
T11E0 000:224.524   Value=0x00000000
T11E0 000:224.544 - 0.031ms returns 0
T11E0 000:224.554 JLINK_ReadMemU32(0xE000ED00, 0x1 Items)
T11E0 000:225.753   Data:  30 C2 2F 41
T11E0 000:225.782   Debug reg: CPUID
T11E0 000:225.797 - 1.248ms returns 1 (0x1)
T11E0 000:225.811 JLINK_GetDebugInfo(0x10F = JLINKARM_DEBUG_INFO_HAS_CORTEX_M_SECURITY_EXT_INDEX)
T11E0 000:225.821   Value=0x00000000
T11E0 000:225.832 - 0.024ms returns 0
T11E0 000:225.842 JLINK_HasError()
T11E0 000:225.852 JLINK_SetResetType(JLINKARM_CM3_RESET_TYPE_NORMAL)
T11E0 000:225.860 - 0.011ms returns ???
T11E0 000:225.879 JLINK_Reset()
T11E0 000:225.898   CPU is running
T11E0 000:227.053   CPU is running
T11E0 000:231.211   Reset: Halt core after reset via DEMCR.VC_CORERESET.
T11E0 000:233.822   Reset: Reset device via AIRCR.SYSRESETREQ.
T11E0 000:233.844   CPU is running
T11E0 000:287.966   CPU is running
T11E0 000:289.282   CPU is running
T11E0 000:597.986 - 372.143ms
T11E0 000:598.049 JLINK_Halt()
T11E0 000:598.063 - 0.020ms returns 0x00
T11E0 000:598.080 JLINK_ReadMemU32(0xE000EDF0, 0x1 Items)
T11E0 000:599.295   Data:  03 00 03 00
T11E0 000:599.329   Debug reg: DHCSR
T11E0 000:599.343 - 1.266ms returns 1 (0x1)
T11E0 000:599.362 JLINK_WriteU32_64(0xE000EDF0, 0xA05F0003)
T11E0 000:599.372   Debug reg: DHCSR
T11E0 000:600.606 - 1.282ms returns 0 (0x00000000)
T11E0 000:600.672 JLINK_WriteU32_64(0xE000EDFC, 0x01000000)
T11E0 000:600.687   Debug reg: DEMCR
T11E0 000:601.834 - 1.208ms returns 0 (0x00000000)
T11E0 000:612.080 JLINK_GetHWStatus(...)
T11E0 000:612.376 - 0.319ms returns 0
T11E0 000:619.615 JLINK_GetNumBPUnits(Type = 0xFFFFFF00)
T11E0 000:619.632 - 0.021ms returns 0x06
T11E0 000:619.642 JLINK_GetNumBPUnits(Type = 0xF0)
T11E0 000:619.661 - 0.023ms returns 0x2000
T11E0 000:619.671 JLINK_GetNumWPUnits()
T11E0 000:619.679 - 0.011ms returns 4
T11E0 000:626.921 JLINK_GetSpeed()
T11E0 000:626.936 - 0.018ms returns 4000
T11E0 000:631.751 JLINK_ReadMemU32(0xE000E004, 0x1 Items)
T11E0 000:632.988   Data:  01 00 00 00
T11E0 000:633.016 - 1.270ms returns 1 (0x1)
T11E0 000:633.032 JLINK_ReadMemU32(0xE000E004, 0x1 Items)
T11E0 000:634.219   Data:  01 00 00 00
T11E0 000:634.247 - 1.220ms returns 1 (0x1)
T11E0 000:634.262 JLINK_WriteMemEx(0xE0001000, 0x0000001C Bytes, Flags = 0x02000004)
T11E0 000:634.273   Data:  01 00 00 00 00 00 00 00 00 00 00 00 00 00 00 00 ...
T11E0 000:636.305 - 2.061ms returns 0x1C
T11E0 000:636.339 JLINK_Halt()
T11E0 000:636.351 - 0.017ms returns 0x00
T11E0 000:636.362 JLINK_IsHalted()
T11E0 000:637.583 - 1.258ms returns TRUE
T11E0 000:640.958 JLINK_WriteMem(0x10000000, 0x1E4 Bytes, ...)
T11E0 000:640.976   Data:  00 BE 0A E0 0D 78 2D 06 68 40 08 24 40 00 00 D3 ...
T11E0 000:652.255 - 11.331ms returns 0x1E4
T11E0 000:652.356 JLINK_HasError()
T11E0 000:652.382 JLINK_WriteReg(R0, 0x00000000)
T11E0 000:652.397 - 0.019ms returns 0
T11E0 000:652.408 JLINK_WriteReg(R1, 0x00B71B00)
T11E0 000:652.417 - 0.013ms returns 0
T11E0 000:652.427 JLINK_WriteReg(R2, 0x00000001)
T11E0 000:652.435 - 0.012ms returns 0
T11E0 000:652.445 JLINK_WriteReg(R3, 0x00000000)
T11E0 000:652.454 - 0.012ms returns 0
T11E0 000:652.463 JLINK_WriteReg(R4, 0x00000000)
T11E0 000:652.472 - 0.012ms returns 0
T11E0 000:652.481 JLINK_WriteReg(R5, 0x00000000)
T11E0 000:652.490 - 0.012ms returns 0
T11E0 000:652.499 JLINK_WriteReg(R6, 0x00000000)
T11E0 000:652.508 - 0.012ms returns 0
T11E0 000:652.529 JLINK_WriteReg(R7, 0x00000000)
T11E0 000:652.538 - 0.013ms returns 0
T11E0 000:652.548 JLINK_WriteReg(R8, 0x00000000)
T11E0 000:652.561 - 0.017ms returns 0
T11E0 000:652.652 JLINK_WriteReg(R9, 0x100001DC)
T11E0 000:652.671 - 0.025ms returns 0
T11E0 000:652.686 JLINK_WriteReg(R10, 0x00000000)
T11E0 000:652.699 - 0.019ms returns 0
T11E0 000:652.713 JLINK_WriteReg(R11, 0x00000000)
T11E0 000:652.722 - 0.013ms returns 0
T11E0 000:652.732 JLINK_WriteReg(R12, 0x00000000)
T11E0 000:652.740 - 0.012ms returns 0
T11E0 000:652.750 JLINK_WriteReg(R13 (SP), 0x10000FE0)
T11E0 000:652.760 - 0.014ms returns 0
T11E0 000:652.769 JLINK_WriteReg(R14, 0x10000001)
T11E0 000:652.778 - 0.012ms returns 0
T11E0 000:652.787 JLINK_WriteReg(R15 (PC), 0x10000044)
T11E0 000:652.800 - 0.017ms returns 0
T11E0 000:652.810 JLINK_WriteReg(XPSR, 0x01000000)
T11E0 000:652.819 - 0.012ms returns 0
T11E0 000:652.829 JLINK_WriteReg(MSP, 0x10000FE0)
T11E0 000:652.837 - 0.012ms returns 0
T11E0 000:652.847 JLINK_WriteReg(PSP, 0x10000FE0)
T11E0 000:652.855 - 0.012ms returns 0
T11E0 000:652.865 JLINK_WriteReg(CFBP, 0x00000000)
T11E0 000:652.874 - 0.012ms returns 0
T11E0 000:652.884 JLINK_SetBPEx(Addr = 0x10000000, Type = 0xFFFFFFF2)
T11E0 000:652.895 - 0.015ms returns 0x00000001
T11E0 000:652.905 JLINK_Go()
T11E0 000:681.561 - 28.670ms
T11E0 000:681.601 JLINK_IsHalted()
T11E0 000:692.417 - 10.826ms returns TRUE
T11E0 000:692.441 JLINK_ReadReg(R15 (PC))
T11E0 000:692.468 - 0.032ms returns 0x10000000
T11E0 000:692.539 JLINK_ClrBPEx(BPHandle = 0x00000001)
T11E0 000:692.554 - 0.020ms returns 0x00
T11E0 000:692.565 JLINK_ReadReg(R0)
T11E0 000:692.592 - 0.031ms returns 0x00000000
T11E0 000:692.975 JLINK_HasError()
T11E0 000:692.990 JLINK_WriteReg(R0, 0x00000000)
T11E0 000:693.001 - 0.014ms returns 0
T11E0 000:693.010 JLINK_WriteReg(R1, 0x00001000)
T11E0 000:693.019 - 0.012ms returns 0
T11E0 000:693.028 JLINK_WriteReg(R2, 0x000000FF)
T11E0 000:693.036 - 0.012ms returns 0
T11E0 000:693.045 JLINK_WriteReg(R3, 0x00000000)
T11E0 000:693.053 - 0.012ms returns 0
T11E0 000:693.062 JLINK_WriteReg(R4, 0x00000000)
T11E0 000:693.071 - 0.012ms returns 0
T11E0 000:693.080 JLINK_WriteReg(R5, 0x00000000)
T11E0 000:693.088 - 0.012ms returns 0
T11E0 000:693.097 JLINK_WriteReg(R6, 0x00000000)
T11E0 000:693.105 - 0.012ms returns 0
T11E0 000:693.119 JLINK_WriteReg(R7, 0x00000000)
T11E0 000:693.131 - 0.016ms returns 0
T11E0 000:693.140 JLINK_WriteReg(R8, 0x00000000)
T11E0 000:693.149 - 0.012ms returns 0
T11E0 000:693.158 JLINK_WriteReg(R9, 0x100001DC)
T11E0 000:693.166 - 0.012ms returns 0
T11E0 000:693.175 JLINK_WriteReg(R10, 0x00000000)
T11E0 000:693.183 - 0.012ms returns 0
T11E0 000:693.192 JLINK_WriteReg(R11, 0x00000000)
T11E0 000:693.200 - 0.012ms returns 0
T11E0 000:693.209 JLINK_WriteReg(R12, 0x00000000)
T11E0 000:693.217 - 0.011ms returns 0
T11E0 000:693.226 JLINK_WriteReg(R13 (SP), 0x10000FE0)
T11E0 000:693.235 - 0.012ms returns 0
T11E0 000:693.244 JLINK_WriteReg(R14, 0x10000001)
T11E0 000:693.252 - 0.012ms returns 0
T11E0 000:693.261 JLINK_WriteReg(R15 (PC), 0x10000020)
T11E0 000:693.270 - 0.012ms returns 0
T11E0 000:693.279 JLINK_WriteReg(XPSR, 0x01000000)
T11E0 000:693.287 - 0.012ms returns 0
T11E0 000:693.296 JLINK_WriteReg(MSP, 0x10000FE0)
T11E0 000:693.304 - 0.011ms returns 0
T11E0 000:693.313 JLINK_WriteReg(PSP, 0x10000FE0)
T11E0 000:693.321 - 0.011ms returns 0
T11E0 000:693.330 JLINK_WriteReg(CFBP, 0x00000000)
T11E0 000:693.338 - 0.011ms returns 0
T11E0 000:693.347 JLINK_SetBPEx(Addr = 0x10000000, Type = 0xFFFFFFF2)
T11E0 000:693.356 - 0.013ms returns 0x00000002
T11E0 000:693.365 JLINK_Go()
T11E0 000:715.693 - 22.366ms
T11E0 000:715.749 JLINK_IsHalted()
T11E0 000:726.829 - 11.120ms returns TRUE
T11E0 000:726.896 JLINK_ReadReg(R15 (PC))
T11E0 000:726.928 - 0.040ms returns 0x10000000
T11E0 000:726.945 JLINK_ClrBPEx(BPHandle = 0x00000002)
T11E0 000:726.958 - 0.019ms returns 0x00
T11E0 000:726.987 JLINK_ReadReg(R0)
T11E0 000:727.011 - 0.031ms returns 0x00000001
T11E0 000:727.155 JLINK_HasError()
T11E0 000:727.194 JLINK_WriteReg(R0, 0x00000000)
T11E0 000:727.214 - 0.025ms returns 0
T11E0 000:727.227 JLINK_WriteReg(R1, 0x00001000)
T11E0 000:727.238 - 0.015ms returns 0
T11E0 000:727.248 JLINK_WriteReg(R2, 0x000000FF)
T11E0 000:727.256 - 0.012ms returns 0
T11E0 000:727.265 JLINK_WriteReg(R3, 0x00000000)
T11E0 000:727.273 - 0.012ms returns 0
T11E0 000:727.282 JLINK_WriteReg(R4, 0x00000000)
T11E0 000:727.290 - 0.012ms returns 0
T11E0 000:727.300 JLINK_WriteReg(R5, 0x00000000)
T11E0 000:727.308 - 0.012ms returns 0
T11E0 000:727.317 JLINK_WriteReg(R6, 0x00000000)
T11E0 000:727.325 - 0.012ms returns 0
T11E0 000:727.334 JLINK_WriteReg(R7, 0x00000000)
T11E0 000:727.342 - 0.012ms returns 0
T11E0 000:727.352 JLINK_WriteReg(R8, 0x00000000)
T11E0 000:727.360 - 0.012ms returns 0
T11E0 000:727.369 JLINK_WriteReg(R9, 0x100001DC)
T11E0 000:727.377 - 0.012ms returns 0
T11E0 000:727.386 JLINK_WriteReg(R10, 0x00000000)
T11E0 000:727.395 - 0.012ms returns 0
T11E0 000:727.404 JLINK_WriteReg(R11, 0x00000000)
T11E0 000:727.412 - 0.012ms returns 0
T11E0 000:727.421 JLINK_WriteReg(R12, 0x00000000)
T11E0 000:727.429 - 0.012ms returns 0
T11E0 000:727.438 JLINK_WriteReg(R13 (SP), 0x10000FE0)
T11E0 000:727.448 - 0.013ms returns 0
T11E0 000:727.457 JLINK_WriteReg(R14, 0x10000001)
T11E0 000:727.465 - 0.012ms returns 0
T11E0 000:727.475 JLINK_WriteReg(R15 (PC), 0x10000110)
T11E0 000:727.483 - 0.012ms returns 0
T11E0 000:727.492 JLINK_WriteReg(XPSR, 0x01000000)
T11E0 000:727.500 - 0.012ms returns 0
T11E0 000:727.509 JLINK_WriteReg(MSP, 0x10000FE0)
T11E0 000:727.534 - 0.037ms returns 0
T11E0 000:727.553 JLINK_WriteReg(PSP, 0x10000FE0)
T11E0 000:727.562 - 0.012ms returns 0
T11E0 000:727.571 JLINK_WriteReg(CFBP, 0x00000000)
T11E0 000:727.579 - 0.012ms returns 0
T11E0 000:727.598 JLINK_SetBPEx(Addr = 0x10000000, Type = 0xFFFFFFF2)
T11E0 000:727.610 - 0.024ms returns 0x00000003
T11E0 000:727.619 JLINK_Go()
T11E0 000:749.806 - 22.220ms
T11E0 000:749.855 JLINK_IsHalted()
T11E0 000:751.131 - 1.316ms returns FALSE
T11E0 000:751.189 JLINK_HasError()
T11E0 000:767.750 JLINK_IsHalted()
T11E0 000:768.879 - 1.147ms returns FALSE
T11E0 000:768.918 JLINK_HasError()
T11E0 000:770.751 JLINK_IsHalted()
T11E0 000:771.961 - 1.240ms returns FALSE
T11E0 000:772.008 JLINK_HasError()
T11E0 000:773.860 JLINK_IsHalted()
T11E0 000:775.348 - 1.518ms returns FALSE
T11E0 000:775.396 JLINK_HasError()
T11E0 000:777.024 JLINK_IsHalted()
T11E0 000:778.355 - 1.359ms returns FALSE
T11E0 000:778.408 JLINK_HasError()
T11E0 000:780.032 JLINK_IsHalted()
T11E0 000:781.351 - 1.349ms returns FALSE
T11E0 000:781.398 JLINK_HasError()
T11E0 000:783.022 JLINK_IsHalted()
T11E0 000:784.227 - 1.228ms returns FALSE
T11E0 000:784.265 JLINK_HasError()
T11E0 000:786.030 JLINK_IsHalted()
T11E0 000:787.215 - 1.223ms returns FALSE
T11E0 000:787.271 JLINK_HasError()
T11E0 000:789.230 JLINK_IsHalted()
T11E0 000:790.484 - 1.285ms returns FALSE
T11E0 000:790.532 JLINK_HasError()
T11E0 000:792.245 JLINK_IsHalted()
T11E0 000:793.499 - 1.282ms returns FALSE
T11E0 000:793.543 JLINK_HasError()
T11E0 000:795.230 JLINK_IsHalted()
T11E0 000:796.401 - 1.205ms returns FALSE
T11E0 000:796.456 JLINK_HasError()
T11E0 000:798.242 JLINK_IsHalted()
T11E0 000:799.476 - 1.263ms returns FALSE
T11E0 000:799.521 JLINK_HasError()
T11E0 000:801.230 JLINK_IsHalted()
T11E0 000:802.409 - 1.209ms returns FALSE
T11E0 000:802.455 JLINK_HasError()
T11E0 000:804.244 JLINK_IsHalted()
T11E0 000:805.497 - 1.281ms returns FALSE
T11E0 000:805.539 JLINK_HasError()
T11E0 000:807.231 JLINK_IsHalted()
T11E0 000:808.475 - 1.275ms returns FALSE
T11E0 000:808.521 JLINK_HasError()
T11E0 000:810.245 JLINK_IsHalted()
T11E0 000:811.497 - 1.279ms returns FALSE
T11E0 000:811.539 JLINK_HasError()
T11E0 000:813.187 JLINK_IsHalted()
T11E0 000:814.330 - 1.159ms returns FALSE
T11E0 000:814.358 JLINK_HasError()
T11E0 000:819.234 JLINK_IsHalted()
T11E0 000:820.478 - 1.274ms returns FALSE
T11E0 000:820.523 JLINK_HasError()
T11E0 000:822.402 JLINK_IsHalted()
T11E0 000:823.678 - 1.306ms returns FALSE
T11E0 000:823.725 JLINK_HasError()
T11E0 000:825.458 JLINK_IsHalted()
T11E0 000:826.620 - 1.189ms returns FALSE
T11E0 000:826.663 JLINK_HasError()
T11E0 000:828.530 JLINK_IsHalted()
T11E0 000:829.743 - 1.228ms returns FALSE
T11E0 000:829.770 JLINK_HasError()
T11E0 000:831.469 JLINK_IsHalted()
T11E0 000:832.689 - 1.249ms returns FALSE
T11E0 000:832.733 JLINK_HasError()
T11E0 000:834.437 JLINK_IsHalted()
T11E0 000:835.596 - 1.175ms returns FALSE
T11E0 000:835.623 JLINK_HasError()
T11E0 000:837.695 JLINK_IsHalted()
T11E0 000:838.936 - 1.268ms returns FALSE
T11E0 000:838.980 JLINK_HasError()
T11E0 000:840.708 JLINK_IsHalted()
T11E0 000:841.962 - 1.281ms returns FALSE
T11E0 000:842.005 JLINK_HasError()
T11E0 000:843.694 JLINK_IsHalted()
T11E0 000:844.842 - 1.176ms returns FALSE
T11E0 000:844.885 JLINK_HasError()
T11E0 000:846.722 JLINK_IsHalted()
T11E0 000:847.970 - 1.275ms returns FALSE
T11E0 000:848.013 JLINK_HasError()
T11E0 000:849.708 JLINK_IsHalted()
T11E0 000:860.603 - 10.931ms returns TRUE
T11E0 000:860.659 JLINK_ReadReg(R15 (PC))
T11E0 000:860.676 - 0.022ms returns 0x10000000
T11E0 000:860.687 JLINK_ClrBPEx(BPHandle = 0x00000003)
T11E0 000:860.705 - 0.023ms returns 0x00
T11E0 000:860.720 JLINK_ReadReg(R0)
T11E0 000:860.729 - 0.014ms returns 0x00000000
T11E0 000:861.398 JLINK_HasError()
T11E0 000:861.415 JLINK_WriteReg(R0, 0x00001000)
T11E0 000:861.427 - 0.015ms returns 0
T11E0 000:861.437 JLINK_WriteReg(R1, 0x00001000)
T11E0 000:861.446 - 0.013ms returns 0
T11E0 000:861.456 JLINK_WriteReg(R2, 0x000000FF)
T11E0 000:861.464 - 0.013ms returns 0
T11E0 000:861.474 JLINK_WriteReg(R3, 0x00000000)
T11E0 000:861.483 - 0.012ms returns 0
T11E0 000:861.493 JLINK_WriteReg(R4, 0x00000000)
T11E0 000:861.501 - 0.012ms returns 0
T11E0 000:861.511 JLINK_WriteReg(R5, 0x00000000)
T11E0 000:861.520 - 0.012ms returns 0
T11E0 000:861.529 JLINK_WriteReg(R6, 0x00000000)
T11E0 000:861.538 - 0.012ms returns 0
T11E0 000:861.548 JLINK_WriteReg(R7, 0x00000000)
T11E0 000:861.557 - 0.013ms returns 0
T11E0 000:861.566 JLINK_WriteReg(R8, 0x00000000)
T11E0 000:861.575 - 0.013ms returns 0
T11E0 000:861.585 JLINK_WriteReg(R9, 0x100001DC)
T11E0 000:861.594 - 0.012ms returns 0
T11E0 000:861.603 JLINK_WriteReg(R10, 0x00000000)
T11E0 000:861.612 - 0.018ms returns 0
T11E0 000:861.631 JLINK_WriteReg(R11, 0x00000000)
T11E0 000:861.641 - 0.013ms returns 0
T11E0 000:861.651 JLINK_WriteReg(R12, 0x00000000)
T11E0 000:861.659 - 0.013ms returns 0
T11E0 000:861.669 JLINK_WriteReg(R13 (SP), 0x10000FE0)
T11E0 000:861.678 - 0.013ms returns 0
T11E0 000:861.688 JLINK_WriteReg(R14, 0x10000001)
T11E0 000:861.708 - 0.024ms returns 0
T11E0 000:861.719 JLINK_WriteReg(R15 (PC), 0x10000020)
T11E0 000:861.728 - 0.012ms returns 0
T11E0 000:861.737 JLINK_WriteReg(XPSR, 0x01000000)
T11E0 000:861.746 - 0.013ms returns 0
T11E0 000:861.756 JLINK_WriteReg(MSP, 0x10000FE0)
T11E0 000:861.764 - 0.012ms returns 0
T11E0 000:861.774 JLINK_WriteReg(PSP, 0x10000FE0)
T11E0 000:861.783 - 0.012ms returns 0
T11E0 000:861.792 JLINK_WriteReg(CFBP, 0x00000000)
T11E0 000:861.801 - 0.012ms returns 0
T11E0 000:861.811 JLINK_SetBPEx(Addr = 0x10000000, Type = 0xFFFFFFF2)
T11E0 000:861.822 - 0.015ms returns 0x00000004
T11E0 000:861.832 JLINK_Go()
T11E0 000:883.543 - 21.728ms
T11E0 000:883.571 JLINK_IsHalted()
T11E0 000:894.581 - 11.048ms returns TRUE
T11E0 000:894.646 JLINK_ReadReg(R15 (PC))
T11E0 000:894.678 - 0.039ms returns 0x10000000
T11E0 000:894.828 JLINK_ClrBPEx(BPHandle = 0x00000004)
T11E0 000:894.876 - 0.055ms returns 0x00
T11E0 000:894.894 JLINK_ReadReg(R0)
T11E0 000:894.906 - 0.018ms returns 0x00000001
T11E0 000:894.920 JLINK_HasError()
T11E0 000:894.934 JLINK_WriteReg(R0, 0x00001000)
T11E0 000:894.947 - 0.018ms returns 0
T11E0 000:894.960 JLINK_WriteReg(R1, 0x00001000)
T11E0 000:894.971 - 0.016ms returns 0
T11E0 000:894.983 JLINK_WriteReg(R2, 0x000000FF)
T11E0 000:894.994 - 0.016ms returns 0
T11E0 000:895.006 JLINK_WriteReg(R3, 0x00000000)
T11E0 000:895.018 - 0.016ms returns 0
T11E0 000:895.029 JLINK_WriteReg(R4, 0x00000000)
T11E0 000:895.040 - 0.024ms returns 0
T11E0 000:895.062 JLINK_WriteReg(R5, 0x00000000)
T11E0 000:895.073 - 0.017ms returns 0
T11E0 000:895.086 JLINK_WriteReg(R6, 0x00000000)
T11E0 000:895.097 - 0.017ms returns 0
T11E0 000:895.110 JLINK_WriteReg(R7, 0x00000000)
T11E0 000:895.121 - 0.016ms returns 0
T11E0 000:895.134 JLINK_WriteReg(R8, 0x00000000)
T11E0 000:895.145 - 0.017ms returns 0
T11E0 000:895.159 JLINK_WriteReg(R9, 0x100001DC)
T11E0 000:895.177 - 0.026ms returns 0
T11E0 000:895.192 JLINK_WriteReg(R10, 0x00000000)
T11E0 000:895.203 - 0.014ms returns 0
T11E0 000:895.212 JLINK_WriteReg(R11, 0x00000000)
T11E0 000:895.221 - 0.012ms returns 0
T11E0 000:895.231 JLINK_WriteReg(R12, 0x00000000)
T11E0 000:895.239 - 0.012ms returns 0
T11E0 000:895.249 JLINK_WriteReg(R13 (SP), 0x10000FE0)
T11E0 000:895.258 - 0.013ms returns 0
T11E0 000:895.268 JLINK_WriteReg(R14, 0x10000001)
T11E0 000:895.276 - 0.012ms returns 0
T11E0 000:895.286 JLINK_WriteReg(R15 (PC), 0x10000110)
T11E0 000:895.295 - 0.013ms returns 0
T11E0 000:895.305 JLINK_WriteReg(XPSR, 0x01000000)
T11E0 000:895.313 - 0.012ms returns 0
T11E0 000:895.323 JLINK_WriteReg(MSP, 0x10000FE0)
T11E0 000:895.332 - 0.012ms returns 0
T11E0 000:895.341 JLINK_WriteReg(PSP, 0x10000FE0)
T11E0 000:895.350 - 0.013ms returns 0
T11E0 000:895.360 JLINK_WriteReg(CFBP, 0x00000000)
T11E0 000:895.368 - 0.012ms returns 0
T11E0 000:895.378 JLINK_SetBPEx(Addr = 0x10000000, Type = 0xFFFFFFF2)
T11E0 000:895.389 - 0.015ms returns 0x00000005
T11E0 000:895.399 JLINK_Go()
T11E0 000:917.592 - 22.217ms
T11E0 000:917.629 JLINK_IsHalted()
T11E0 000:918.720 - 1.106ms returns FALSE
T11E0 000:918.747 JLINK_HasError()
T11E0 000:923.717 JLINK_IsHalted()
T11E0 000:924.948 - 1.262ms returns FALSE
T11E0 000:924.996 JLINK_HasError()
T11E0 000:926.779 JLINK_IsHalted()
T11E0 000:927.930 - 1.180ms returns FALSE
T11E0 000:927.975 JLINK_HasError()
T11E0 000:929.933 JLINK_IsHalted()
T11E0 000:931.220 - 1.315ms returns FALSE
T11E0 000:931.264 JLINK_HasError()
T11E0 000:933.147 JLINK_IsHalted()
T11E0 000:934.450 - 1.330ms returns FALSE
T11E0 000:934.493 JLINK_HasError()
T11E0 000:936.193 JLINK_IsHalted()
T11E0 000:937.390 - 1.231ms returns FALSE
T11E0 000:937.443 JLINK_HasError()
T11E0 000:939.152 JLINK_IsHalted()
T11E0 000:940.485 - 1.361ms returns FALSE
T11E0 000:940.529 JLINK_HasError()
T11E0 000:942.200 JLINK_IsHalted()
T11E0 000:943.544 - 1.384ms returns FALSE
T11E0 000:943.602 JLINK_HasError()
T11E0 000:945.192 JLINK_IsHalted()
T11E0 000:946.465 - 1.312ms returns FALSE
T11E0 000:946.532 JLINK_HasError()
T11E0 000:948.204 JLINK_IsHalted()
T11E0 000:949.397 - 1.221ms returns FALSE
T11E0 000:949.441 JLINK_HasError()
T11E0 000:951.418 JLINK_IsHalted()
T11E0 000:952.570 - 1.184ms returns FALSE
T11E0 000:952.619 JLINK_HasError()
T11E0 000:954.437 JLINK_IsHalted()
T11E0 000:955.698 - 1.291ms returns FALSE
T11E0 000:955.744 JLINK_HasError()
T11E0 000:957.427 JLINK_IsHalted()
T11E0 000:958.659 - 1.261ms returns FALSE
T11E0 000:958.704 JLINK_HasError()
T11E0 000:960.429 JLINK_IsHalted()
T11E0 000:961.691 - 1.291ms returns FALSE
T11E0 000:961.736 JLINK_HasError()
T11E0 000:963.418 JLINK_IsHalted()
T11E0 000:964.593 - 1.205ms returns FALSE
T11E0 000:964.638 JLINK_HasError()
T11E0 000:966.432 JLINK_IsHalted()
T11E0 000:967.726 - 1.324ms returns FALSE
T11E0 000:967.771 JLINK_HasError()
T11E0 000:969.415 JLINK_IsHalted()
T11E0 000:970.611 - 1.226ms returns FALSE
T11E0 000:970.657 JLINK_HasError()
T11E0 000:972.434 JLINK_IsHalted()
T11E0 000:973.645 - 1.258ms returns FALSE
T11E0 000:973.713 JLINK_HasError()
T11E0 000:975.377 JLINK_IsHalted()
T11E0 000:976.477 - 1.115ms returns FALSE
T11E0 000:976.504 JLINK_HasError()
T11E0 000:978.423 JLINK_IsHalted()
T11E0 000:979.685 - 1.304ms returns FALSE
T11E0 000:979.744 JLINK_HasError()
T11E0 000:981.420 JLINK_IsHalted()
T11E0 000:982.647 - 1.255ms returns FALSE
T11E0 000:982.691 JLINK_HasError()
T11E0 000:984.587 JLINK_IsHalted()
T11E0 000:985.884 - 1.322ms returns FALSE
T11E0 000:985.923 JLINK_HasError()
T11E0 000:988.622 JLINK_IsHalted()
T11E0 000:989.883 - 1.290ms returns FALSE
T11E0 000:989.929 JLINK_HasError()
T11E0 000:991.689 JLINK_IsHalted()
T11E0 000:992.912 - 1.260ms returns FALSE
T11E0 000:992.967 JLINK_HasError()
T11E0 000:994.806 JLINK_IsHalted()
T11E0 000:995.964 - 1.186ms returns FALSE
T11E0 000:996.008 JLINK_HasError()
T11E0 000:997.833 JLINK_IsHalted()
T11E0 000:999.073 - 1.269ms returns FALSE
T11E0 000:999.117 JLINK_HasError()
T11E0 001:000.911 JLINK_IsHalted()
T11E0 001:002.159 - 1.279ms returns FALSE
T11E0 001:002.206 JLINK_HasError()
T11E0 001:003.916 JLINK_IsHalted()
T11E0 001:005.198 - 1.311ms returns FALSE
T11E0 001:005.243 JLINK_HasError()
T11E0 001:006.950 JLINK_IsHalted()
T11E0 001:008.232 - 1.309ms returns FALSE
T11E0 001:008.275 JLINK_HasError()
T11E0 001:009.918 JLINK_IsHalted()
T11E0 001:011.176 - 1.297ms returns FALSE
T11E0 001:011.234 JLINK_HasError()
T11E0 001:012.941 JLINK_IsHalted()
T11E0 001:014.230 - 1.318ms returns FALSE
T11E0 001:014.274 JLINK_HasError()
T11E0 001:015.997 JLINK_IsHalted()
T11E0 001:017.203 - 1.231ms returns FALSE
T11E0 001:017.240 JLINK_HasError()
T11E0 001:018.831 JLINK_IsHalted()
T11E0 001:029.924 - 11.129ms returns TRUE
T11E0 001:029.987 JLINK_ReadReg(R15 (PC))
T11E0 001:030.008 - 0.028ms returns 0x10000000
T11E0 001:030.025 JLINK_ClrBPEx(BPHandle = 0x00000005)
T11E0 001:030.038 - 0.020ms returns 0x00
T11E0 001:030.058 JLINK_ReadReg(R0)
T11E0 001:030.072 - 0.019ms returns 0x00000000
T11E0 001:030.802 JLINK_HasError()
T11E0 001:030.830 JLINK_WriteReg(R0, 0x00002000)
T11E0 001:030.844 - 0.018ms returns 0
T11E0 001:030.854 JLINK_WriteReg(R1, 0x00001000)
T11E0 001:030.863 - 0.012ms returns 0
T11E0 001:030.872 JLINK_WriteReg(R2, 0x000000FF)
T11E0 001:030.881 - 0.012ms returns 0
T11E0 001:030.890 JLINK_WriteReg(R3, 0x00000000)
T11E0 001:030.899 - 0.012ms returns 0
T11E0 001:030.909 JLINK_WriteReg(R4, 0x00000000)
T11E0 001:030.917 - 0.012ms returns 0
T11E0 001:030.926 JLINK_WriteReg(R5, 0x00000000)
T11E0 001:030.935 - 0.012ms returns 0
T11E0 001:030.944 JLINK_WriteReg(R6, 0x00000000)
T11E0 001:030.952 - 0.012ms returns 0
T11E0 001:030.962 JLINK_WriteReg(R7, 0x00000000)
T11E0 001:030.970 - 0.012ms returns 0
T11E0 001:030.980 JLINK_WriteReg(R8, 0x00000000)
T11E0 001:031.000 - 0.024ms returns 0
T11E0 001:031.010 JLINK_WriteReg(R9, 0x100001DC)
T11E0 001:031.018 - 0.012ms returns 0
T11E0 001:031.028 JLINK_WriteReg(R10, 0x00000000)
T11E0 001:031.036 - 0.012ms returns 0
T11E0 001:031.046 JLINK_WriteReg(R11, 0x00000000)
T11E0 001:031.054 - 0.012ms returns 0
T11E0 001:031.064 JLINK_WriteReg(R12, 0x00000000)
T11E0 001:031.072 - 0.012ms returns 0
T11E0 001:031.082 JLINK_WriteReg(R13 (SP), 0x10000FE0)
T11E0 001:031.091 - 0.013ms returns 0
T11E0 001:031.100 JLINK_WriteReg(R14, 0x10000001)
T11E0 001:031.109 - 0.012ms returns 0
T11E0 001:031.118 JLINK_WriteReg(R15 (PC), 0x10000020)
T11E0 001:031.127 - 0.012ms returns 0
T11E0 001:031.136 JLINK_WriteReg(XPSR, 0x01000000)
T11E0 001:031.144 - 0.012ms returns 0
T11E0 001:031.154 JLINK_WriteReg(MSP, 0x10000FE0)
T11E0 001:031.162 - 0.012ms returns 0
T11E0 001:031.171 JLINK_WriteReg(PSP, 0x10000FE0)
T11E0 001:031.180 - 0.012ms returns 0
T11E0 001:031.189 JLINK_WriteReg(CFBP, 0x00000000)
T11E0 001:031.197 - 0.012ms returns 0
T11E0 001:031.207 JLINK_SetBPEx(Addr = 0x10000000, Type = 0xFFFFFFF2)
T11E0 001:031.217 - 0.014ms returns 0x00000006
T11E0 001:031.227 JLINK_Go()
T11E0 001:053.222 - 22.030ms
T11E0 001:053.282 JLINK_IsHalted()
T11E0 001:064.292 - 11.055ms returns TRUE
T11E0 001:064.360 JLINK_ReadReg(R15 (PC))
T11E0 001:064.378 - 0.022ms returns 0x10000000
T11E0 001:064.389 JLINK_ClrBPEx(BPHandle = 0x00000006)
T11E0 001:064.399 - 0.013ms returns 0x00
T11E0 001:064.410 JLINK_ReadReg(R0)
T11E0 001:064.419 - 0.013ms returns 0x00000001
T11E0 001:064.432 JLINK_HasError()
T11E0 001:064.559 JLINK_WriteReg(R0, 0x00002000)
T11E0 001:064.586 - 0.033ms returns 0
T11E0 001:064.601 JLINK_WriteReg(R1, 0x00001000)
T11E0 001:064.613 - 0.016ms returns 0
T11E0 001:064.623 JLINK_WriteReg(R2, 0x000000FF)
T11E0 001:064.632 - 0.012ms returns 0
T11E0 001:064.641 JLINK_WriteReg(R3, 0x00000000)
T11E0 001:064.650 - 0.012ms returns 0
T11E0 001:064.659 JLINK_WriteReg(R4, 0x00000000)
T11E0 001:064.667 - 0.012ms returns 0
T11E0 001:064.677 JLINK_WriteReg(R5, 0x00000000)
T11E0 001:064.685 - 0.012ms returns 0
T11E0 001:064.694 JLINK_WriteReg(R6, 0x00000000)
T11E0 001:064.703 - 0.012ms returns 0
T11E0 001:064.712 JLINK_WriteReg(R7, 0x00000000)
T11E0 001:064.720 - 0.012ms returns 0
T11E0 001:064.730 JLINK_WriteReg(R8, 0x00000000)
T11E0 001:064.738 - 0.012ms returns 0
T11E0 001:064.748 JLINK_WriteReg(R9, 0x100001DC)
T11E0 001:064.756 - 0.012ms returns 0
T11E0 001:064.765 JLINK_WriteReg(R10, 0x00000000)
T11E0 001:064.774 - 0.012ms returns 0
T11E0 001:064.783 JLINK_WriteReg(R11, 0x00000000)
T11E0 001:064.791 - 0.012ms returns 0
T11E0 001:064.801 JLINK_WriteReg(R12, 0x00000000)
T11E0 001:064.809 - 0.012ms returns 0
T11E0 001:064.818 JLINK_WriteReg(R13 (SP), 0x10000FE0)
T11E0 001:064.827 - 0.013ms returns 0
T11E0 001:064.837 JLINK_WriteReg(R14, 0x10000001)
T11E0 001:064.845 - 0.012ms returns 0
T11E0 001:064.855 JLINK_WriteReg(R15 (PC), 0x10000110)
T11E0 001:064.863 - 0.012ms returns 0
T11E0 001:064.872 JLINK_WriteReg(XPSR, 0x01000000)
T11E0 001:064.881 - 0.012ms returns 0
T11E0 001:064.890 JLINK_WriteReg(MSP, 0x10000FE0)
T11E0 001:064.898 - 0.012ms returns 0
T11E0 001:064.908 JLINK_WriteReg(PSP, 0x10000FE0)
T11E0 001:064.916 - 0.012ms returns 0
T11E0 001:064.926 JLINK_WriteReg(CFBP, 0x00000000)
T11E0 001:064.934 - 0.012ms returns 0
T11E0 001:064.944 JLINK_SetBPEx(Addr = 0x10000000, Type = 0xFFFFFFF2)
T11E0 001:064.954 - 0.015ms returns 0x00000007
T11E0 001:064.964 JLINK_Go()
T11E0 001:087.416 - 22.489ms
T11E0 001:087.470 JLINK_IsHalted()
T11E0 001:088.674 - 1.232ms returns FALSE
T11E0 001:088.719 JLINK_HasError()
T11E0 001:092.425 JLINK_IsHalted()
T11E0 001:093.702 - 1.305ms returns FALSE
T11E0 001:093.745 JLINK_HasError()
T11E0 001:095.406 JLINK_IsHalted()
T11E0 001:096.580 - 1.190ms returns FALSE
T11E0 001:096.608 JLINK_HasError()
T11E0 001:098.425 JLINK_IsHalted()
T11E0 001:099.694 - 1.300ms returns FALSE
T11E0 001:099.753 JLINK_HasError()
T11E0 001:101.422 JLINK_IsHalted()
T11E0 001:102.855 - 1.464ms returns FALSE
T11E0 001:102.903 JLINK_HasError()
T11E0 001:104.426 JLINK_IsHalted()
T11E0 001:105.730 - 1.330ms returns FALSE
T11E0 001:105.772 JLINK_HasError()
T11E0 001:107.423 JLINK_IsHalted()
T11E0 001:108.707 - 1.314ms returns FALSE
T11E0 001:108.753 JLINK_HasError()
T11E0 001:110.427 JLINK_IsHalted()
T11E0 001:111.682 - 1.285ms returns FALSE
T11E0 001:111.728 JLINK_HasError()
T11E0 001:113.424 JLINK_IsHalted()
T11E0 001:114.705 - 1.310ms returns FALSE
T11E0 001:114.759 JLINK_HasError()
T11E0 001:116.423 JLINK_IsHalted()
T11E0 001:117.669 - 1.271ms returns FALSE
T11E0 001:117.708 JLINK_HasError()
T11E0 001:119.426 JLINK_IsHalted()
T11E0 001:120.757 - 1.372ms returns FALSE
T11E0 001:120.816 JLINK_HasError()
T11E0 001:122.422 JLINK_IsHalted()
T11E0 001:123.707 - 1.313ms returns FALSE
T11E0 001:123.751 JLINK_HasError()
T11E0 001:125.423 JLINK_IsHalted()
T11E0 001:126.568 - 1.188ms returns FALSE
T11E0 001:126.628 JLINK_HasError()
T11E0 001:128.322 JLINK_IsHalted()
T11E0 001:129.444 - 1.139ms returns FALSE
T11E0 001:129.473 JLINK_HasError()
T11E0 001:131.285 JLINK_IsHalted()
T11E0 001:132.343 - 1.074ms returns FALSE
T11E0 001:132.370 JLINK_HasError()
T11E0 001:134.329 JLINK_IsHalted()
T11E0 001:135.438 - 1.126ms returns FALSE
T11E0 001:135.466 JLINK_HasError()
T11E0 001:137.320 JLINK_IsHalted()
T11E0 001:138.416 - 1.111ms returns FALSE
T11E0 001:138.443 JLINK_HasError()
T11E0 001:140.425 JLINK_IsHalted()
T11E0 001:141.685 - 1.300ms returns FALSE
T11E0 001:141.743 JLINK_HasError()
T11E0 001:143.431 JLINK_IsHalted()
T11E0 001:144.673 - 1.269ms returns FALSE
T11E0 001:144.716 JLINK_HasError()
T11E0 001:146.425 JLINK_IsHalted()
T11E0 001:147.688 - 1.304ms returns FALSE
T11E0 001:147.747 JLINK_HasError()
T11E0 001:149.431 JLINK_IsHalted()
T11E0 001:150.552 - 1.148ms returns FALSE
T11E0 001:150.592 JLINK_HasError()
T11E0 001:152.396 JLINK_IsHalted()
T11E0 001:153.569 - 1.203ms returns FALSE
T11E0 001:153.616 JLINK_HasError()
T11E0 001:155.430 JLINK_IsHalted()
T11E0 001:156.698 - 1.309ms returns FALSE
T11E0 001:156.757 JLINK_HasError()
T11E0 001:158.430 JLINK_IsHalted()
T11E0 001:159.703 - 1.314ms returns FALSE
T11E0 001:159.762 JLINK_HasError()
T11E0 001:161.416 JLINK_IsHalted()
T11E0 001:162.691 - 1.297ms returns FALSE
T11E0 001:162.727 JLINK_HasError()
T11E0 001:164.509 JLINK_IsHalted()
T11E0 001:165.767 - 1.285ms returns FALSE
T11E0 001:165.810 JLINK_HasError()
T11E0 001:167.338 JLINK_IsHalted()
T11E0 001:168.439 - 1.118ms returns FALSE
T11E0 001:168.468 JLINK_HasError()
T11E0 001:170.429 JLINK_IsHalted()
T11E0 001:171.680 - 1.280ms returns FALSE
T11E0 001:171.725 JLINK_HasError()
T11E0 001:173.425 JLINK_IsHalted()
T11E0 001:174.623 - 1.241ms returns FALSE
T11E0 001:174.690 JLINK_HasError()
T11E0 001:178.428 JLINK_IsHalted()
T11E0 001:179.686 - 1.298ms returns FALSE
T11E0 001:179.744 JLINK_HasError()
T11E0 001:181.424 JLINK_IsHalted()
T11E0 001:182.677 - 1.280ms returns FALSE
T11E0 001:182.719 JLINK_HasError()
T11E0 001:184.385 JLINK_IsHalted()
T11E0 001:185.572 - 1.203ms returns FALSE
T11E0 001:185.599 JLINK_HasError()
T11E0 001:187.423 JLINK_IsHalted()
T11E0 001:198.495 - 11.110ms returns TRUE
T11E0 001:198.560 JLINK_ReadReg(R15 (PC))
T11E0 001:198.582 - 0.030ms returns 0x10000000
T11E0 001:198.724 JLINK_ClrBPEx(BPHandle = 0x00000007)
T11E0 001:198.763 - 0.047ms returns 0x00
T11E0 001:198.780 JLINK_ReadReg(R0)
T11E0 001:198.794 - 0.018ms returns 0x00000000
T11E0 001:199.522 JLINK_HasError()
T11E0 001:199.540 JLINK_WriteReg(R0, 0x00003000)
T11E0 001:199.551 - 0.015ms returns 0
T11E0 001:199.561 JLINK_WriteReg(R1, 0x00001000)
T11E0 001:199.570 - 0.012ms returns 0
T11E0 001:199.579 JLINK_WriteReg(R2, 0x000000FF)
T11E0 001:199.587 - 0.012ms returns 0
T11E0 001:199.597 JLINK_WriteReg(R3, 0x00000000)
T11E0 001:199.605 - 0.021ms returns 0
T11E0 001:199.624 JLINK_WriteReg(R4, 0x00000000)
T11E0 001:199.632 - 0.012ms returns 0
T11E0 001:199.642 JLINK_WriteReg(R5, 0x00000000)
T11E0 001:199.650 - 0.019ms returns 0
T11E0 001:199.671 JLINK_WriteReg(R6, 0x00000000)
T11E0 001:199.680 - 0.013ms returns 0
T11E0 001:199.689 JLINK_WriteReg(R7, 0x00000000)
T11E0 001:199.698 - 0.012ms returns 0
T11E0 001:199.707 JLINK_WriteReg(R8, 0x00000000)
T11E0 001:199.716 - 0.012ms returns 0
T11E0 001:199.725 JLINK_WriteReg(R9, 0x100001DC)
T11E0 001:199.742 - 0.021ms returns 0
T11E0 001:199.753 JLINK_WriteReg(R10, 0x00000000)
T11E0 001:199.762 - 0.013ms returns 0
T11E0 001:199.772 JLINK_WriteReg(R11, 0x00000000)
T11E0 001:199.780 - 0.012ms returns 0
T11E0 001:199.790 JLINK_WriteReg(R12, 0x00000000)
T11E0 001:199.798 - 0.012ms returns 0
T11E0 001:199.808 JLINK_WriteReg(R13 (SP), 0x10000FE0)
T11E0 001:199.818 - 0.013ms returns 0
T11E0 001:199.828 JLINK_WriteReg(R14, 0x10000001)
T11E0 001:199.836 - 0.012ms returns 0
T11E0 001:199.846 JLINK_WriteReg(R15 (PC), 0x10000020)
T11E0 001:199.855 - 0.012ms returns 0
T11E0 001:199.864 JLINK_WriteReg(XPSR, 0x01000000)
T11E0 001:199.873 - 0.012ms returns 0
T11E0 001:199.883 JLINK_WriteReg(MSP, 0x10000FE0)
T11E0 001:199.891 - 0.012ms returns 0
T11E0 001:199.901 JLINK_WriteReg(PSP, 0x10000FE0)
T11E0 001:199.909 - 0.012ms returns 0
T11E0 001:199.919 JLINK_WriteReg(CFBP, 0x00000000)
T11E0 001:199.928 - 0.012ms returns 0
T11E0 001:199.937 JLINK_SetBPEx(Addr = 0x10000000, Type = 0xFFFFFFF2)
T11E0 001:199.948 - 0.015ms returns 0x00000008
T11E0 001:199.958 JLINK_Go()
T11E0 001:222.425 - 22.500ms
T11E0 001:222.472 JLINK_IsHalted()
T11E0 001:233.771 - 11.335ms returns TRUE
T11E0 001:233.842 JLINK_ReadReg(R15 (PC))
T11E0 001:233.883 - 0.051ms returns 0x10000000
T11E0 001:233.910 JLINK_ClrBPEx(BPHandle = 0x00000008)
T11E0 001:233.929 - 0.030ms returns 0x00
T11E0 001:234.078 JLINK_ReadReg(R0)
T11E0 001:234.121 - 0.051ms returns 0x00000001
T11E0 001:234.139 JLINK_HasError()
T11E0 001:234.153 JLINK_WriteReg(R0, 0x00003000)
T11E0 001:234.167 - 0.018ms returns 0
T11E0 001:234.179 JLINK_WriteReg(R1, 0x00001000)
T11E0 001:234.190 - 0.016ms returns 0
T11E0 001:234.203 JLINK_WriteReg(R2, 0x000000FF)
T11E0 001:234.214 - 0.016ms returns 0
T11E0 001:234.226 JLINK_WriteReg(R3, 0x00000000)
T11E0 001:234.237 - 0.016ms returns 0
T11E0 001:234.249 JLINK_WriteReg(R4, 0x00000000)
T11E0 001:234.260 - 0.016ms returns 0
T11E0 001:234.273 JLINK_WriteReg(R5, 0x00000000)
T11E0 001:234.283 - 0.015ms returns 0
T11E0 001:234.295 JLINK_WriteReg(R6, 0x00000000)
T11E0 001:234.306 - 0.016ms returns 0
T11E0 001:234.319 JLINK_WriteReg(R7, 0x00000000)
T11E0 001:234.330 - 0.015ms returns 0
T11E0 001:234.340 JLINK_WriteReg(R8, 0x00000000)
T11E0 001:234.349 - 0.012ms returns 0
T11E0 001:234.358 JLINK_WriteReg(R9, 0x100001DC)
T11E0 001:234.367 - 0.012ms returns 0
T11E0 001:234.376 JLINK_WriteReg(R10, 0x00000000)
T11E0 001:234.385 - 0.012ms returns 0
T11E0 001:234.395 JLINK_WriteReg(R11, 0x00000000)
T11E0 001:234.404 - 0.012ms returns 0
T11E0 001:234.413 JLINK_WriteReg(R12, 0x00000000)
T11E0 001:234.422 - 0.012ms returns 0
T11E0 001:234.431 JLINK_WriteReg(R13 (SP), 0x10000FE0)
T11E0 001:234.441 - 0.013ms returns 0
T11E0 001:234.451 JLINK_WriteReg(R14, 0x10000001)
T11E0 001:234.459 - 0.012ms returns 0
T11E0 001:234.469 JLINK_WriteReg(R15 (PC), 0x10000110)
T11E0 001:234.477 - 0.013ms returns 0
T11E0 001:234.487 JLINK_WriteReg(XPSR, 0x01000000)
T11E0 001:234.496 - 0.012ms returns 0
T11E0 001:234.505 JLINK_WriteReg(MSP, 0x10000FE0)
T11E0 001:234.514 - 0.012ms returns 0
T11E0 001:234.524 JLINK_WriteReg(PSP, 0x10000FE0)
T11E0 001:234.532 - 0.012ms returns 0
T11E0 001:234.542 JLINK_WriteReg(CFBP, 0x00000000)
T11E0 001:234.550 - 0.012ms returns 0
T11E0 001:234.560 JLINK_SetBPEx(Addr = 0x10000000, Type = 0xFFFFFFF2)
T11E0 001:234.571 - 0.015ms returns 0x00000009
T11E0 001:234.581 JLINK_Go()
T11E0 001:256.729 - 22.186ms
T11E0 001:256.784 JLINK_IsHalted()
T11E0 001:258.066 - 1.351ms returns FALSE
T11E0 001:258.155 JLINK_HasError()
T11E0 001:261.220 JLINK_IsHalted()
T11E0 001:262.398 - 1.208ms returns FALSE
T11E0 001:262.445 JLINK_HasError()
T11E0 001:264.455 JLINK_IsHalted()
T11E0 001:265.712 - 1.284ms returns FALSE
T11E0 001:265.755 JLINK_HasError()
T11E0 001:267.488 JLINK_IsHalted()
T11E0 001:268.719 - 1.258ms returns FALSE
T11E0 001:268.761 JLINK_HasError()
T11E0 001:270.463 JLINK_IsHalted()
T11E0 001:271.688 - 1.253ms returns FALSE
T11E0 001:271.731 JLINK_HasError()
T11E0 001:273.486 JLINK_IsHalted()
T11E0 001:274.751 - 1.303ms returns FALSE
T11E0 001:274.806 JLINK_HasError()
T11E0 001:276.464 JLINK_IsHalted()
T11E0 001:277.694 - 1.268ms returns FALSE
T11E0 001:277.749 JLINK_HasError()
T11E0 001:279.489 JLINK_IsHalted()
T11E0 001:280.807 - 1.368ms returns FALSE
T11E0 001:280.876 JLINK_HasError()
T11E0 001:282.465 JLINK_IsHalted()
T11E0 001:283.688 - 1.253ms returns FALSE
T11E0 001:283.734 JLINK_HasError()
T11E0 001:285.483 JLINK_IsHalted()
T11E0 001:286.743 - 1.284ms returns FALSE
T11E0 001:286.781 JLINK_HasError()
T11E0 001:288.463 JLINK_IsHalted()
T11E0 001:289.687 - 1.252ms returns FALSE
T11E0 001:289.731 JLINK_HasError()
T11E0 001:291.486 JLINK_IsHalted()
T11E0 001:292.650 - 1.193ms returns FALSE
T11E0 001:292.697 JLINK_HasError()
T11E0 001:294.720 JLINK_IsHalted()
T11E0 001:295.970 - 1.283ms returns FALSE
T11E0 001:296.019 JLINK_HasError()
T11E0 001:297.832 JLINK_IsHalted()
T11E0 001:299.105 - 1.302ms returns FALSE
T11E0 001:299.151 JLINK_HasError()
T11E0 001:300.943 JLINK_IsHalted()
T11E0 001:302.287 - 1.383ms returns FALSE
T11E0 001:302.345 JLINK_HasError()
T11E0 001:303.930 JLINK_IsHalted()
T11E0 001:305.230 - 1.328ms returns FALSE
T11E0 001:305.274 JLINK_HasError()
T11E0 001:306.915 JLINK_IsHalted()
T11E0 001:308.097 - 1.211ms returns FALSE
T11E0 001:308.143 JLINK_HasError()
T11E0 001:309.934 JLINK_IsHalted()
T11E0 001:311.253 - 1.347ms returns FALSE
T11E0 001:311.305 JLINK_HasError()
T11E0 001:312.913 JLINK_IsHalted()
T11E0 001:314.156 - 1.273ms returns FALSE
T11E0 001:314.201 JLINK_HasError()
T11E0 001:315.934 JLINK_IsHalted()
T11E0 001:317.186 - 1.291ms returns FALSE
T11E0 001:317.246 JLINK_HasError()
T11E0 001:322.929 JLINK_IsHalted()
T11E0 001:324.133 - 1.233ms returns FALSE
T11E0 001:324.179 JLINK_HasError()
T11E0 001:326.070 JLINK_IsHalted()
T11E0 001:327.308 - 1.275ms returns FALSE
T11E0 001:327.363 JLINK_HasError()
T11E0 001:329.162 JLINK_IsHalted()
T11E0 001:330.463 - 1.340ms returns FALSE
T11E0 001:330.521 JLINK_HasError()
T11E0 001:332.336 JLINK_IsHalted()
T11E0 001:333.586 - 1.282ms returns FALSE
T11E0 001:333.633 JLINK_HasError()
T11E0 001:335.342 JLINK_IsHalted()
T11E0 001:336.682 - 1.380ms returns FALSE
T11E0 001:336.748 JLINK_HasError()
T11E0 001:338.325 JLINK_IsHalted()
T11E0 001:339.563 - 1.267ms returns FALSE
T11E0 001:339.608 JLINK_HasError()
T11E0 001:341.444 JLINK_IsHalted()
T11E0 001:342.677 - 1.261ms returns FALSE
T11E0 001:342.720 JLINK_HasError()
T11E0 001:344.459 JLINK_IsHalted()
T11E0 001:345.713 - 1.280ms returns FALSE
T11E0 001:345.755 JLINK_HasError()
T11E0 001:347.442 JLINK_IsHalted()
T11E0 001:348.711 - 1.298ms returns FALSE
T11E0 001:348.757 JLINK_HasError()
T11E0 001:350.387 JLINK_IsHalted()
T11E0 001:351.565 - 1.193ms returns FALSE
T11E0 001:351.592 JLINK_HasError()
T11E0 001:353.445 JLINK_IsHalted()
T11E0 001:354.781 - 1.364ms returns FALSE
T11E0 001:354.824 JLINK_HasError()
T11E0 001:356.475 JLINK_IsHalted()
T11E0 001:367.712 - 11.275ms returns TRUE
T11E0 001:367.778 JLINK_ReadReg(R15 (PC))
T11E0 001:367.802 - 0.033ms returns 0x10000000
T11E0 001:367.902 JLINK_ClrBPEx(BPHandle = 0x00000009)
T11E0 001:367.938 - 0.045ms returns 0x00
T11E0 001:367.961 JLINK_ReadReg(R0)
T11E0 001:367.975 - 0.020ms returns 0x00000000
T11E0 001:368.675 JLINK_HasError()
T11E0 001:368.697 JLINK_WriteReg(R0, 0x00004000)
T11E0 001:368.710 - 0.017ms returns 0
T11E0 001:368.720 JLINK_WriteReg(R1, 0x00001000)
T11E0 001:368.729 - 0.013ms returns 0
T11E0 001:368.739 JLINK_WriteReg(R2, 0x000000FF)
T11E0 001:368.748 - 0.012ms returns 0
T11E0 001:368.757 JLINK_WriteReg(R3, 0x00000000)
T11E0 001:368.766 - 0.012ms returns 0
T11E0 001:368.775 JLINK_WriteReg(R4, 0x00000000)
T11E0 001:368.792 - 0.025ms returns 0
T11E0 001:368.807 JLINK_WriteReg(R5, 0x00000000)
T11E0 001:368.815 - 0.012ms returns 0
T11E0 001:368.825 JLINK_WriteReg(R6, 0x00000000)
T11E0 001:368.833 - 0.012ms returns 0
T11E0 001:368.843 JLINK_WriteReg(R7, 0x00000000)
T11E0 001:368.852 - 0.012ms returns 0
T11E0 001:368.872 JLINK_WriteReg(R8, 0x00000000)
T11E0 001:368.882 - 0.014ms returns 0
T11E0 001:368.892 JLINK_WriteReg(R9, 0x100001DC)
T11E0 001:368.900 - 0.012ms returns 0
T11E0 001:368.910 JLINK_WriteReg(R10, 0x00000000)
T11E0 001:368.919 - 0.012ms returns 0
T11E0 001:368.929 JLINK_WriteReg(R11, 0x00000000)
T11E0 001:368.937 - 0.012ms returns 0
T11E0 001:368.947 JLINK_WriteReg(R12, 0x00000000)
T11E0 001:368.955 - 0.012ms returns 0
T11E0 001:368.965 JLINK_WriteReg(R13 (SP), 0x10000FE0)
T11E0 001:368.974 - 0.013ms returns 0
T11E0 001:368.984 JLINK_WriteReg(R14, 0x10000001)
T11E0 001:368.992 - 0.012ms returns 0
T11E0 001:369.002 JLINK_WriteReg(R15 (PC), 0x10000020)
T11E0 001:369.011 - 0.012ms returns 0
T11E0 001:369.020 JLINK_WriteReg(XPSR, 0x01000000)
T11E0 001:369.029 - 0.012ms returns 0
T11E0 001:369.039 JLINK_WriteReg(MSP, 0x10000FE0)
T11E0 001:369.047 - 0.012ms returns 0
T11E0 001:369.057 JLINK_WriteReg(PSP, 0x10000FE0)
T11E0 001:369.065 - 0.012ms returns 0
T11E0 001:369.075 JLINK_WriteReg(CFBP, 0x00000000)
T11E0 001:369.083 - 0.012ms returns 0
T11E0 001:369.093 JLINK_SetBPEx(Addr = 0x10000000, Type = 0xFFFFFFF2)
T11E0 001:369.104 - 0.015ms returns 0x0000000A
T11E0 001:369.114 JLINK_Go()
T11E0 001:391.983 - 22.908ms
T11E0 001:392.039 JLINK_IsHalted()
T11E0 001:403.275 - 11.275ms returns TRUE
T11E0 001:403.340 JLINK_ReadReg(R15 (PC))
T11E0 001:403.363 - 0.031ms returns 0x10000000
T11E0 001:403.486 JLINK_ClrBPEx(BPHandle = 0x0000000A)
T11E0 001:403.525 - 0.047ms returns 0x00
T11E0 001:403.544 JLINK_ReadReg(R0)
T11E0 001:403.558 - 0.019ms returns 0x00000001
T11E0 001:403.573 JLINK_HasError()
T11E0 001:403.587 JLINK_WriteReg(R0, 0x00004000)
T11E0 001:403.599 - 0.017ms returns 0
T11E0 001:403.611 JLINK_WriteReg(R1, 0x00001000)
T11E0 001:403.621 - 0.015ms returns 0
T11E0 001:403.633 JLINK_WriteReg(R2, 0x000000FF)
T11E0 001:403.645 - 0.016ms returns 0
T11E0 001:403.657 JLINK_WriteReg(R3, 0x00000000)
T11E0 001:403.668 - 0.016ms returns 0
T11E0 001:403.680 JLINK_WriteReg(R4, 0x00000000)
T11E0 001:403.691 - 0.016ms returns 0
T11E0 001:403.703 JLINK_WriteReg(R5, 0x00000000)
T11E0 001:403.714 - 0.016ms returns 0
T11E0 001:403.726 JLINK_WriteReg(R6, 0x00000000)
T11E0 001:403.737 - 0.015ms returns 0
T11E0 001:403.748 JLINK_WriteReg(R7, 0x00000000)
T11E0 001:403.759 - 0.015ms returns 0
T11E0 001:403.771 JLINK_WriteReg(R8, 0x00000000)
T11E0 001:403.781 - 0.015ms returns 0
T11E0 001:403.793 JLINK_WriteReg(R9, 0x100001DC)
T11E0 001:403.804 - 0.015ms returns 0
T11E0 001:403.816 JLINK_WriteReg(R10, 0x00000000)
T11E0 001:403.827 - 0.016ms returns 0
T11E0 001:403.839 JLINK_WriteReg(R11, 0x00000000)
T11E0 001:403.849 - 0.014ms returns 0
T11E0 001:403.858 JLINK_WriteReg(R12, 0x00000000)
T11E0 001:403.866 - 0.012ms returns 0
T11E0 001:403.876 JLINK_WriteReg(R13 (SP), 0x10000FE0)
T11E0 001:403.885 - 0.013ms returns 0
T11E0 001:403.894 JLINK_WriteReg(R14, 0x10000001)
T11E0 001:403.903 - 0.012ms returns 0
T11E0 001:403.912 JLINK_WriteReg(R15 (PC), 0x10000110)
T11E0 001:403.921 - 0.012ms returns 0
T11E0 001:403.930 JLINK_WriteReg(XPSR, 0x01000000)
T11E0 001:403.938 - 0.012ms returns 0
T11E0 001:403.948 JLINK_WriteReg(MSP, 0x10000FE0)
T11E0 001:403.956 - 0.012ms returns 0
T11E0 001:403.965 JLINK_WriteReg(PSP, 0x10000FE0)
T11E0 001:403.974 - 0.012ms returns 0
T11E0 001:403.983 JLINK_WriteReg(CFBP, 0x00000000)
T11E0 001:403.992 - 0.012ms returns 0
T11E0 001:404.001 JLINK_SetBPEx(Addr = 0x10000000, Type = 0xFFFFFFF2)
T11E0 001:404.012 - 0.014ms returns 0x0000000B
T11E0 001:404.021 JLINK_Go()
T11E0 001:426.393 - 22.405ms
T11E0 001:426.439 JLINK_IsHalted()
T11E0 001:427.538 - 1.115ms returns FALSE
T11E0 001:427.565 JLINK_HasError()
T11E0 001:430.240 JLINK_IsHalted()
T11E0 001:431.484 - 1.273ms returns FALSE
T11E0 001:431.528 JLINK_HasError()
T11E0 001:433.212 JLINK_IsHalted()
T11E0 001:434.458 - 1.274ms returns FALSE
T11E0 001:434.503 JLINK_HasError()
T11E0 001:436.237 JLINK_IsHalted()
T11E0 001:437.454 - 1.244ms returns FALSE
T11E0 001:437.497 JLINK_HasError()
T11E0 001:439.243 JLINK_IsHalted()
T11E0 001:440.453 - 1.238ms returns FALSE
T11E0 001:440.496 JLINK_HasError()
T11E0 001:442.238 JLINK_IsHalted()
T11E0 001:443.458 - 1.248ms returns FALSE
T11E0 001:443.502 JLINK_HasError()
T11E0 001:446.244 JLINK_IsHalted()
T11E0 001:447.488 - 1.272ms returns FALSE
T11E0 001:447.531 JLINK_HasError()
T11E0 001:449.242 JLINK_IsHalted()
T11E0 001:450.463 - 1.252ms returns FALSE
T11E0 001:450.511 JLINK_HasError()
T11E0 001:452.249 JLINK_IsHalted()
T11E0 001:453.488 - 1.266ms returns FALSE
T11E0 001:453.530 JLINK_HasError()
T11E0 001:455.249 JLINK_IsHalted()
T11E0 001:456.595 - 1.373ms returns FALSE
T11E0 001:456.637 JLINK_HasError()
T11E0 001:458.245 JLINK_IsHalted()
T11E0 001:459.458 - 1.242ms returns FALSE
T11E0 001:459.502 JLINK_HasError()
T11E0 001:461.245 JLINK_IsHalted()
T11E0 001:462.449 - 1.230ms returns FALSE
T11E0 001:462.491 JLINK_HasError()
T11E0 001:464.245 JLINK_IsHalted()
T11E0 001:465.448 - 1.230ms returns FALSE
T11E0 001:465.490 JLINK_HasError()
T11E0 001:467.251 JLINK_IsHalted()
T11E0 001:468.484 - 1.263ms returns FALSE
T11E0 001:468.529 JLINK_HasError()
T11E0 001:470.215 JLINK_IsHalted()
T11E0 001:471.458 - 1.271ms returns FALSE
T11E0 001:471.503 JLINK_HasError()
T11E0 001:473.232 JLINK_IsHalted()
T11E0 001:474.460 - 1.255ms returns FALSE
T11E0 001:474.502 JLINK_HasError()
T11E0 001:476.250 JLINK_IsHalted()
T11E0 001:477.498 - 1.286ms returns FALSE
T11E0 001:477.554 JLINK_HasError()
T11E0 001:479.230 JLINK_IsHalted()
T11E0 001:480.487 - 1.285ms returns FALSE
T11E0 001:480.539 JLINK_HasError()
T11E0 001:482.255 JLINK_IsHalted()
T11E0 001:483.443 - 1.228ms returns FALSE
